T25F0 28235:828.553   SEGGER J-Link V6.60d Log File
T25F0 28235:828.869   DLL Compiled: Jan  9 2020 17:43:01
T25F0 28235:828.902   Logging started @ 2020-02-15 14:55
T25F0 28235:828.994 JLINK_SetWarnOutHandler(...)
T25F0 28235:829.032 - 0.051ms
T25F0 28235:829.079 JLINK_OpenEx(...)
T25F0 28235:831.195   Firmware: J-Link V9 compiled Jun  2 2222 22:22:22
T25F0 28235:851.805   Hardware: V9.40
T25F0 28235:851.828   S/N: 81480416
T25F0 28235:851.839   OEM: SEGGER
T25F0 28235:851.851   Feature(s): GDB, RDI, FlashBP, FlashDL, JFlash, RDDI
T25F0 28235:852.981   TELNET listener socket opened on port 19021
T25F0 28235:853.350   WEBSRV Starting webserver
T25F0 28235:853.573   WEBSRV Webserver running on local port 19080
T25F0 28235:853.590 - 24.515ms returns "O.K."
T25F0 28235:853.964 JLINK_GetEmuCaps()
T25F0 28235:853.980 - 0.021ms returns 0xB9FF7BBF
T25F0 28235:853.999 JLINK_TIF_GetAvailable(...)
T25F0 28235:854.197 - 0.210ms
T25F0 28235:854.227 JLINK_SetErrorOutHandler(...)
T25F0 28235:854.236 - 0.014ms
T25F0 28235:854.255 JLINK_ExecCommand("ProjectFile = "G:\ÖÇÄÜ³µ\program\Projecct\MDK\JLinkSettings.ini"", ...). 
T25F0 28235:856.963 - 2.719ms returns 0x00
T25F0 28235:921.542 JLINK_ExecCommand("Device = LPC54606J512BD100", ...). 
T25F0 28235:960.031   Device "LPC54606J512" selected.
T25F0 28235:961.222 - 39.649ms returns 0x00
T25F0 28235:961.263 JLINK_ExecCommand("DisableConnectionTimeout", ...). 
T25F0 28235:961.301 - 0.033ms returns 0x01
T25F0 28235:961.458 JLINK_GetHardwareVersion()
T25F0 28235:961.490 - 0.042ms returns 0x16F30
T25F0 28235:961.528 JLINK_GetDLLVersion()  returns 66004
T25F0 28235:961.566 JLINK_GetFirmwareString(...)
T25F0 28235:961.585 - 0.029ms
T25F0 28235:976.454 JLINK_GetDLLVersion()  returns 66004
T25F0 28235:976.506 JLINK_GetCompileDateTime()
T25F0 28235:976.519 - 0.019ms
T25F0 28235:979.488 JLINK_GetFirmwareString(...)
T25F0 28235:979.528 - 0.050ms
T25F0 28235:987.140 JLINK_GetHardwareVersion()
T25F0 28235:987.161 - 0.026ms returns 0x16F30
T25F0 28236:039.187 JLINK_TIF_Select(JLINKARM_TIF_SWD)
T25F0 28236:040.131 - 0.955ms returns 0x00
T25F0 28236:040.164 JLINK_SetSpeed(10000)
T25F0 28236:040.324 - 0.170ms
T25F0 28236:040.364 JLINK_GetId()
T25F0 28236:045.725   Found SW-DP with ID 0x2BA01477
T25F0 28236:049.360   Found SW-DP with ID 0x2BA01477
T25F0 28236:052.923   Scanning AP map to find all available APs
T25F0 28236:056.253   AP[1]: Stopped AP scan as end of AP map has been reached
T25F0 28236:057.479   AP[0]: AHB-AP (IDR: 0x24770011)
T25F0 28236:061.430   Iterating through AP map to find AHB-AP to use
T25F0 28236:066.940   AP[0]: Core found
T25F0 28236:068.219   AP[0]: AHB-AP ROM base: 0xE00FF000
T25F0 28236:072.102   CPUID register: 0x410FC241. Implementer code: 0x41 (ARM)
T25F0 28236:073.337   Found Cortex-M4 r0p1, Little endian.
T25F0 28236:174.599    -- Max. mem block: 0x00010C80
T25F0 28236:174.667    -- CPU_ReadMem(4 bytes @ 0xE000EDF0)
T25F0 28236:175.476    -- CPU_WriteMem(4 bytes @ 0xE000EDF0)
T25F0 28236:175.981    -- CPU_ReadMem(4 bytes @ 0xE0002000)
T25F0 28236:180.877   FPUnit: 6 code (BP) slots and 2 literal slots
T25F0 28236:180.944    -- CPU_ReadMem(4 bytes @ 0xE000EDFC)
T25F0 28236:181.587    -- CPU_WriteMem(4 bytes @ 0xE000EDFC)
T25F0 28236:182.174    -- CPU_ReadMem(4 bytes @ 0xE0001000)
T25F0 28236:182.760    -- CPU_WriteMem(4 bytes @ 0xE0001000)
T25F0 28236:183.340    -- CPU_ReadMem(4 bytes @ 0xE000ED88)
T25F0 28236:183.948    -- CPU_WriteMem(4 bytes @ 0xE000ED88)
T25F0 28236:184.511    -- CPU_ReadMem(4 bytes @ 0xE000ED88)
T25F0 28236:185.068    -- CPU_WriteMem(4 bytes @ 0xE000ED88)
T25F0 28236:189.596   CoreSight components:
T25F0 28236:193.894   ROMTbl[0] @ E00FF000
T25F0 28236:193.962    -- CPU_ReadMem(16 bytes @ 0xE00FF000)
T25F0 28236:194.526    -- CPU_ReadMem(16 bytes @ 0xE000EFF0)
T25F0 28236:195.121    -- CPU_ReadMem(16 bytes @ 0xE000EFE0)
T25F0 28236:200.212   ROMTbl[0][0]: E000E000, CID: B105E00D, PID: 000BB00C SCS-M7
T25F0 28236:200.294    -- CPU_ReadMem(16 bytes @ 0xE0001FF0)
T25F0 28236:200.888    -- CPU_ReadMem(16 bytes @ 0xE0001FE0)
T25F0 28236:210.581   ROMTbl[0][1]: E0001000, CID: B105E00D, PID: 003BB002 DWT
T25F0 28236:210.688    -- CPU_ReadMem(16 bytes @ 0xE0002FF0)
T25F0 28236:211.265    -- CPU_ReadMem(16 bytes @ 0xE0002FE0)
T25F0 28236:217.107   ROMTbl[0][2]: E0002000, CID: B105E00D, PID: 002BB003 FPB
T25F0 28236:217.208    -- CPU_ReadMem(16 bytes @ 0xE0000FF0)
T25F0 28236:217.797    -- CPU_ReadMem(16 bytes @ 0xE0000FE0)
T25F0 28236:224.268   ROMTbl[0][3]: E0000000, CID: B105E00D, PID: 003BB001 ITM
T25F0 28236:224.343    -- CPU_ReadMem(16 bytes @ 0xE00FF010)
T25F0 28236:224.942    -- CPU_ReadMem(16 bytes @ 0xE0040FF0)
T25F0 28236:225.524    -- CPU_ReadMem(16 bytes @ 0xE0040FE0)
T25F0 28236:233.894   ROMTbl[0][4]: E0040000, CID: B105900D, PID: 000BB9A1 TPIU
T25F0 28236:234.002    -- CPU_ReadMem(16 bytes @ 0xE0041FF0)
T25F0 28236:234.601    -- CPU_ReadMem(16 bytes @ 0xE0041FE0)
T25F0 28236:241.431   ROMTbl[0][5]: E0041000, CID: B105900D, PID: 000BB925 ETM
T25F0 28236:242.323 - 201.990ms   returns 0x2BA01477
T25F0 28236:242.399 JLINK_GetDLLVersion()  returns 66004
T25F0 28236:242.451 JLINK_CORE_GetFound()
T25F0 28236:242.475 - 0.035ms returns 0xE0000FF
T25F0 28236:242.511 JLINK_GetDebugInfo(0x100 = JLINKARM_ROM_TABLE_ADDR_INDEX)
T25F0 28236:242.553   Value=0xE00FF000
T25F0 28236:242.596 - 0.100ms returns 0x00
T25F0 28236:248.532 JLINK_GetDebugInfo(0x100 = JLINKARM_ROM_TABLE_ADDR_INDEX)
T25F0 28236:248.624   Value=0xE00FF000
T25F0 28236:248.671 - 0.166ms returns 0x00
T25F0 28236:248.747 JLINK_GetDebugInfo(0x101 = JLINKARM_DEBUG_INFO_ETM_ADDR_INDEX)
T25F0 28236:248.788   Value=0xE0041000
T25F0 28236:248.827 - 0.107ms returns 0x00
T25F0 28236:248.932   JLINK_ReadMemEx(0xE0041FD0, 0x0020 Bytes, ..., Flags = 0x02000004)
T25F0 28236:249.053    -- CPU_ReadMem(32 bytes @ 0xE0041FD0)
T25F0 28236:249.774   Data:  04 00 00 00 00 00 00 00 00 00 00 00 00 00 00 00 ...
T25F0 28236:249.829 - 0.914ms returns 0x20
T25F0 28236:249.873 JLINK_GetDebugInfo(0x102 = JLINKARM_DEBUG_INFO_MTB_ADDR_INDEX)
T25F0 28236:249.899   Value=0x00000000
T25F0 28236:249.930 - 0.068ms returns 0x00
T25F0 28236:249.959 JLINK_GetDebugInfo(0x103 = JLINKARM_DEBUG_INFO_TPIU_ADDR_INDEX)
T25F0 28236:249.983   Value=0xE0040000
T25F0 28236:250.013 - 0.065ms returns 0x00
T25F0 28236:250.042 JLINK_GetDebugInfo(0x104 = JLINKARM_DEBUG_INFO_ITM_ADDR_INDEX)
T25F0 28236:250.066   Value=0xE0000000
T25F0 28236:250.096 - 0.064ms returns 0x00
T25F0 28236:250.124 JLINK_GetDebugInfo(0x105 = JLINKARM_DEBUG_INFO_DWT_ADDR_INDEX)
T25F0 28236:250.146   Value=0xE0001000
T25F0 28236:250.176 - 0.061ms returns 0x00
T25F0 28236:250.204 JLINK_GetDebugInfo(0x106 = JLINKARM_DEBUG_INFO_FPB_ADDR_INDEX)
T25F0 28236:250.225   Value=0xE0002000
T25F0 28236:250.254 - 0.061ms returns 0x00
T25F0 28236:250.282 JLINK_GetDebugInfo(0x107 = JLINKARM_DEBUG_INFO_NVIC_ADDR_INDEX)
T25F0 28236:250.304   Value=0xE000E000
T25F0 28236:250.333 - 0.061ms returns 0x00
T25F0 28236:250.361 JLINK_GetDebugInfo(0x10C = JLINKARM_DEBUG_INFO_DBG_ADDR_INDEX)
T25F0 28236:250.383   Value=0xE000EDF0
T25F0 28236:250.412 - 0.061ms returns 0x00
T25F0 28236:250.439 JLINK_GetDebugInfo(0x01 = Unknown)
T25F0 28236:250.461   Value=0x00000001
T25F0 28236:250.490 - 0.061ms returns 0x00
T25F0 28236:250.557   JLINK_ReadMemU32(0xE000ED00, 0x0001 Items, ...)
T25F0 28236:250.609    -- CPU_ReadMem(4 bytes @ 0xE000ED00)
T25F0 28236:251.130   Data:  41 C2 0F 41
T25F0 28236:251.187    - CPUID
T25F0 28236:251.218 - 0.674ms returns 1
T25F0 28236:251.260 JLINK_GetDebugInfo(0x10F = JLINKARM_DEBUG_INFO_HAS_CORTEX_M_SECURITY_EXT_INDEX)
T25F0 28236:251.285   Value=0x00000000
T25F0 28236:251.315 - 0.066ms returns 0x00
T25F0 28236:251.369 JLINK_SetResetType(JLINKARM_CM3_RESET_TYPE_NORMAL)
T25F0 28236:251.393 - 0.035ms returns JLINKARM_CM3_RESET_TYPE_HALT_AFTER_BTL
T25F0 28236:251.428 JLINK_Reset()
T25F0 28236:251.468   CPU is running
T25F0 28236:251.517    -- CPU_WriteMem(4 bytes @ 0xE000EDF0)
T25F0 28236:251.988   CPU is running
T25F0 28236:252.066    -- CPU_WriteMem(4 bytes @ 0xE000EDFC)
T25F0 28236:267.144   Reset: Halt core after reset via DEMCR.VC_CORERESET.
T25F0 28236:279.537   Reset: Reset device via AIRCR.SYSRESETREQ.
T25F0 28236:279.563   CPU is running
T25F0 28236:279.579    -- CPU_WriteMem(4 bytes @ 0xE000ED0C)
T25F0 28236:332.333    -- CPU_ReadMem(4 bytes @ 0xE000EDF0)
T25F0 28236:332.839    -- CPU_ReadMem(4 bytes @ 0xE000EDF0)
T25F0 28236:333.435   CPU is running
T25F0 28236:333.494    -- CPU_WriteMem(4 bytes @ 0xE000EDF0)
T25F0 28236:334.023   CPU is running
T25F0 28236:334.081    -- CPU_WriteMem(4 bytes @ 0xE000EDFC)
T25F0 28236:340.389    -- CPU_ReadMem(4 bytes @ 0xE000EDF0)
T25F0 28236:343.441    -- CPU_WriteMem(4 bytes @ 0xE000EDFC)
T25F0 28236:343.912    -- CPU_WriteMem(4 bytes @ 0xE000EDFC)
T25F0 28236:344.416    -- CPU_WriteMem(4 bytes @ 0xE000EDFC)
T25F0 28236:344.955    -- CPU_WriteMem(4 bytes @ 0xE000EDFC)
T25F0 28236:345.547    -- CPU_WriteMem(4 bytes @ 0xE000EDFC)
T25F0 28236:346.132    -- CPU_WriteMem(4 bytes @ 0xE0001050)
T25F0 28236:346.629    -- CPU_WriteMem(4 bytes @ 0xE0001054)
T25F0 28236:347.061    -- CPU_WriteMem(4 bytes @ 0xE0001058)
T25F0 28236:347.906    -- CPU_ReadMem(4 bytes @ 0xE0001000)
T25F0 28236:452.448    -- CPU_WriteMem(4 bytes @ 0xE000EDFC)
T25F0 28236:452.985    -- CPU_WriteMem(4 bytes @ 0xE0001058)
T25F0 28236:453.578    -- CPU_ReadMem(4 bytes @ 0x00000004)
T25F0 28236:454.140    -- CPU_ReadMem(4 bytes @ 0xE0002000)
T25F0 28236:454.638    -- CPU_ReadMem(4 bytes @ 0xE0002008)
T25F0 28236:455.111    -- CPU_ReadMem(4 bytes @ 0xE000200C)
T25F0 28236:455.639    -- CPU_ReadMem(4 bytes @ 0xE0002010)
T25F0 28236:456.193    -- CPU_ReadMem(4 bytes @ 0xE0002014)
T25F0 28236:456.760    -- CPU_ReadMem(4 bytes @ 0xE0002018)
T25F0 28236:457.323    -- CPU_ReadMem(4 bytes @ 0xE000201C)
T25F0 28236:457.825    -- CPU_WriteMem(4 bytes @ 0xE0002000)
T25F0 28236:458.355    -- CPU_WriteMem(4 bytes @ 0xE0002008)
T25F0 28236:458.914    -- CPU_WriteMem(4 bytes @ 0xE000200C)
T25F0 28236:459.473    -- CPU_WriteMem(4 bytes @ 0xE0002010)
T25F0 28236:460.018    -- CPU_WriteMem(4 bytes @ 0xE0002014)
T25F0 28236:460.621    -- CPU_WriteMem(4 bytes @ 0xE0002018)
T25F0 28236:461.135    -- CPU_WriteMem(4 bytes @ 0xE000201C)
T25F0 28236:461.674    -- CPU_ReadMem(4 bytes @ 0xE0001000)
T25F0 28236:565.420    -- CPU_WriteMem(4 bytes @ 0xE0002000)
T25F0 28236:566.006    -- CPU_WriteMem(4 bytes @ 0xE0002008)
T25F0 28236:566.576    -- CPU_WriteMem(4 bytes @ 0xE000200C)
T25F0 28236:567.141    -- CPU_WriteMem(4 bytes @ 0xE0002010)
T25F0 28236:567.678    -- CPU_WriteMem(4 bytes @ 0xE0002014)
T25F0 28236:568.244    -- CPU_WriteMem(4 bytes @ 0xE0002018)
T25F0 28236:568.787    -- CPU_WriteMem(4 bytes @ 0xE000201C)
T25F0 28236:569.344    -- CPU_WriteMem(4 bytes @ 0xE0002000)
T25F0 28236:569.833    -- CPU_ReadMem(4 bytes @ 0xE000EDFC)
T25F0 28236:570.377    -- CPU_ReadMem(4 bytes @ 0xE0001000)
T25F0 28236:570.921 - 319.523ms
T25F0 28236:571.039 JLINK_Halt()
T25F0 28236:571.066 - 0.037ms returns 0x00
T25F0 28236:571.105   JLINK_ReadMemU32(0xE000EDF0, 0x0001 Items, ...)
T25F0 28236:571.156    -- CPU_ReadMem(4 bytes @ 0xE000EDF0)
T25F0 28236:571.737   Data:  03 00 03 00
T25F0 28236:571.791    - DHCSR
T25F0 28236:571.821 - 0.730ms returns 1
T25F0 28236:571.885   JLINK_WriteU32(0xE000EDF0, 0xA05F0003)
T25F0 28236:571.919    - DHCSR
T25F0 28236:571.972    -- CPU_WriteMem(4 bytes @ 0xE000EDF0)
T25F0 28236:572.501 - 0.650ms returns 0
T25F0 28236:572.575   JLINK_WriteU32(0xE000EDFC, 0x01000000)
T25F0 28236:572.611    - DEMCR
T25F0 28236:572.673    -- CPU_WriteMem(4 bytes @ 0xE000EDFC)
T25F0 28236:573.187 - 0.644ms returns 0
T25F0 28236:597.870 JLINK_GetHWStatus(...)
T25F0 28236:598.299 - 0.458ms returns 0x00
T25F0 28236:622.811 JLINK_GetNumBPUnits(Type = 0xFFFFFF00)
T25F0 28236:622.866 - 0.068ms returns 0x06
T25F0 28236:622.899 JLINK_GetNumBPUnits(Type = 0xF0)
T25F0 28236:622.922 - 0.034ms returns 0x2000
T25F0 28236:622.957 JLINK_GetNumWPUnits()
T25F0 28236:622.978 - 0.032ms returns 0x04
T25F0 28236:635.680 JLINK_GetSpeed()
T25F0 28236:635.738 - 0.078ms returns 0x1770
T25F0 28236:648.102   JLINK_ReadMemU32(0xE000E004, 0x0001 Items, ...)
T25F0 28236:648.200    -- CPU_ReadMem(4 bytes @ 0xE000E004)
T25F0 28236:648.814   Data:  01 00 00 00
T25F0 28236:648.866 - 0.780ms returns 1
T25F0 28236:648.909   JLINK_ReadMemU32(0xE000E004, 0x0001 Items, ...)
T25F0 28236:648.957    -- CPU_ReadMem(4 bytes @ 0xE000E004)
T25F0 28236:649.405   Data:  01 00 00 00
T25F0 28236:649.465 - 0.570ms returns 1
T25F0 28236:649.534 JLINK_WriteMemEx(0xE0001000, 0x001C Bytes, ..., Flags = 0x02000004)
T25F0 28236:649.563   Data:  01 00 00 00 00 00 00 00 00 00 00 00 00 00 00 00 ...
T25F0 28236:651.269    -- CPU_WriteMem(28 bytes @ 0xE0001000)
T25F0 28236:651.908 - 2.410ms returns 0x1C
T25F0 28236:651.996 JLINK_Halt()
T25F0 28236:652.022 - 0.037ms returns 0x00
T25F0 28236:652.074 JLINK_IsHalted()
T25F0 28236:652.100 - 0.038ms returns TRUE
T25F0 28236:664.759 JLINK_WriteMem(0x20000000, 0x0178 Bytes, ...)
T25F0 28236:664.806   Data:  00 BE 0A E0 0D 78 2D 06 68 40 08 24 40 00 00 D3 ...
T25F0 28236:666.722    -- CPU_WriteMem(376 bytes @ 0x20000000)
T25F0 28236:668.701 - 3.992ms returns 0x178
T25F0 28236:668.933 JLINK_WriteReg(R0, 0x00000000)
T25F0 28236:668.977 - 0.058ms returns 0x00
T25F0 28236:669.008 JLINK_WriteReg(R1, 0x00B71B00)
T25F0 28236:669.031 - 0.034ms returns 0x00
T25F0 28236:669.060 JLINK_WriteReg(R2, 0x00000001)
T25F0 28236:669.082 - 0.032ms returns 0x00
T25F0 28236:669.110 JLINK_WriteReg(R3, 0x00000000)
T25F0 28236:669.132 - 0.032ms returns 0x00
T25F0 28236:669.159 JLINK_WriteReg(R4, 0x00000000)
T25F0 28236:669.182 - 0.037ms returns 0x00
T25F0 28236:669.221 JLINK_WriteReg(R5, 0x00000000)
T25F0 28236:669.243 - 0.033ms returns 0x00
T25F0 28236:669.271 JLINK_WriteReg(R6, 0x00000000)
T25F0 28236:669.293 - 0.032ms returns 0x00
T25F0 28236:669.321 JLINK_WriteReg(R7, 0x00000000)
T25F0 28236:669.343 - 0.032ms returns 0x00
T25F0 28236:669.371 JLINK_WriteReg(R8, 0x00000000)
T25F0 28236:669.393 - 0.032ms returns 0x00
T25F0 28236:669.421 JLINK_WriteReg(R9, 0x20000170)
T25F0 28236:669.451 - 0.041ms returns 0x00
T25F0 28236:669.485 JLINK_WriteReg(R10, 0x00000000)
T25F0 28236:669.522 - 0.056ms returns 0x00
T25F0 28236:669.573 JLINK_WriteReg(R11, 0x00000000)
T25F0 28236:669.599 - 0.037ms returns 0x00
T25F0 28236:669.627 JLINK_WriteReg(R12, 0x00000000)
T25F0 28236:669.649 - 0.032ms returns 0x00
T25F0 28236:669.677 JLINK_WriteReg(R13 (SP), 0x20001000)
T25F0 28236:669.701 - 0.035ms returns 0x00
T25F0 28236:669.729 JLINK_WriteReg(R14, 0x20000001)
T25F0 28236:669.751 - 0.032ms returns 0x00
T25F0 28236:669.779 JLINK_WriteReg(R15 (PC), 0x2000003C)
T25F0 28236:669.802 - 0.033ms returns 0x00
T25F0 28236:669.830 JLINK_WriteReg(XPSR, 0x01000000)
T25F0 28236:669.852 - 0.033ms returns 0x00
T25F0 28236:669.880 JLINK_WriteReg(MSP, 0x20001000)
T25F0 28236:669.902 - 0.032ms returns 0x00
T25F0 28236:669.930 JLINK_WriteReg(PSP, 0x20001000)
T25F0 28236:669.952 - 0.032ms returns 0x00
T25F0 28236:669.980 JLINK_WriteReg(CFBP, 0x00000000)
T25F0 28236:670.009 - 0.041ms returns 0x00
T25F0 28236:670.049   JLINK_SetBPEx(Addr = 0x20000000, Type = 0xFFFFFFF2)
T25F0 28236:670.099    -- CPU_ReadMem(2 bytes @ 0x20000000)
T25F0 28236:670.686 - 0.671ms returns 0x00000001
T25F0 28236:670.761 JLINK_Go()
T25F0 28236:670.805    -- CPU_WriteMem(2 bytes @ 0x20000000)
T25F0 28236:671.321    -- CPU_ReadMem(4 bytes @ 0xE0001000)
T25F0 28236:671.913    -- CPU_WriteMem(4 bytes @ 0xE0002008)
T25F0 28236:671.969    -- CPU_WriteMem(4 bytes @ 0xE000200C)
T25F0 28236:672.010    -- CPU_WriteMem(4 bytes @ 0xE0002010)
T25F0 28236:672.042    -- CPU_WriteMem(4 bytes @ 0xE0002014)
T25F0 28236:672.074    -- CPU_WriteMem(4 bytes @ 0xE0002018)
T25F0 28236:672.106    -- CPU_WriteMem(4 bytes @ 0xE000201C)
T25F0 28236:673.236    -- CPU_WriteMem(4 bytes @ 0xE0001004)
T25F0 28236:676.198 - 5.489ms
T25F0 28236:676.287 JLINK_IsHalted()
T25F0 28236:678.779    -- CPU_ReadMem(2 bytes @ 0x20000000)
T25F0 28236:679.325 - 3.079ms returns TRUE
T25F0 28236:679.464 JLINK_ReadReg(R15 (PC))
T25F0 28236:679.523 - 0.077ms returns 0x20000000
T25F0 28236:679.572 JLINK_ClrBPEx(BPHandle = 0x00000001)
T25F0 28236:679.597 - 0.036ms returns 0x00
T25F0 28236:679.631 JLINK_ReadReg(R0)
T25F0 28236:679.655 - 0.035ms returns 0x00000000
T25F0 28236:680.980 JLINK_WriteReg(R0, 0x00000000)
T25F0 28236:681.028 - 0.059ms returns 0x00
T25F0 28236:681.058 JLINK_WriteReg(R1, 0x00008000)
T25F0 28236:681.080 - 0.033ms returns 0x00
T25F0 28236:681.108 JLINK_WriteReg(R2, 0x000000FF)
T25F0 28236:681.130 - 0.032ms returns 0x00
T25F0 28236:681.158 JLINK_WriteReg(R3, 0x00000000)
T25F0 28236:681.180 - 0.032ms returns 0x00
T25F0 28236:681.207 JLINK_WriteReg(R4, 0x00000000)
T25F0 28236:681.229 - 0.032ms returns 0x00
T25F0 28236:681.256 JLINK_WriteReg(R5, 0x00000000)
T25F0 28236:681.278 - 0.032ms returns 0x00
T25F0 28236:681.306 JLINK_WriteReg(R6, 0x00000000)
T25F0 28236:681.327 - 0.032ms returns 0x00
T25F0 28236:681.355 JLINK_WriteReg(R7, 0x00000000)
T25F0 28236:681.376 - 0.032ms returns 0x00
T25F0 28236:681.409 JLINK_WriteReg(R8, 0x00000000)
T25F0 28236:681.431 - 0.033ms returns 0x00
T25F0 28236:681.459 JLINK_WriteReg(R9, 0x20000170)
T25F0 28236:681.481 - 0.032ms returns 0x00
T25F0 28236:681.509 JLINK_WriteReg(R10, 0x00000000)
T25F0 28236:681.534 - 0.042ms returns 0x00
T25F0 28236:681.576 JLINK_WriteReg(R11, 0x00000000)
T25F0 28236:681.615 - 0.051ms returns 0x00
T25F0 28236:681.644 JLINK_WriteReg(R12, 0x00000000)
T25F0 28236:681.666 - 0.032ms returns 0x00
T25F0 28236:681.694 JLINK_WriteReg(R13 (SP), 0x20001000)
T25F0 28236:681.718 - 0.034ms returns 0x00
T25F0 28236:681.746 JLINK_WriteReg(R14, 0x20000001)
T25F0 28236:681.768 - 0.032ms returns 0x00
T25F0 28236:681.796 JLINK_WriteReg(R15 (PC), 0x20000020)
T25F0 28236:681.818 - 0.032ms returns 0x00
T25F0 28236:681.845 JLINK_WriteReg(XPSR, 0x01000000)
T25F0 28236:681.867 - 0.032ms returns 0x00
T25F0 28236:681.895 JLINK_WriteReg(MSP, 0x20001000)
T25F0 28236:681.916 - 0.032ms returns 0x00
T25F0 28236:681.944 JLINK_WriteReg(PSP, 0x20001000)
T25F0 28236:681.966 - 0.032ms returns 0x00
T25F0 28236:681.993 JLINK_WriteReg(CFBP, 0x00000000)
T25F0 28236:682.015 - 0.032ms returns 0x00
T25F0 28236:682.046   JLINK_SetBPEx(Addr = 0x20000000, Type = 0xFFFFFFF2)
T25F0 28236:682.080 - 0.047ms returns 0x00000002
T25F0 28236:682.110 JLINK_Go()
T25F0 28236:682.160    -- CPU_ReadMem(4 bytes @ 0xE0001000)
T25F0 28236:684.950 - 2.879ms
T25F0 28236:685.021 JLINK_IsHalted()
T25F0 28236:687.434    -- CPU_ReadMem(2 bytes @ 0x20000000)
T25F0 28236:687.909 - 2.922ms returns TRUE
T25F0 28236:687.975 JLINK_ReadReg(R15 (PC))
T25F0 28236:688.007 - 0.044ms returns 0x20000000
T25F0 28236:688.038 JLINK_ClrBPEx(BPHandle = 0x00000002)
T25F0 28236:688.063 - 0.036ms returns 0x00
T25F0 28236:688.094 JLINK_ReadReg(R0)
T25F0 28236:688.117 - 0.035ms returns 0x00000001
T25F0 28236:688.158 JLINK_WriteReg(R0, 0x00000000)
T25F0 28236:688.183 - 0.037ms returns 0x00
T25F0 28236:688.213 JLINK_WriteReg(R1, 0x00008000)
T25F0 28236:688.236 - 0.034ms returns 0x00
T25F0 28236:688.265 JLINK_WriteReg(R2, 0x000000FF)
T25F0 28236:688.288 - 0.033ms returns 0x00
T25F0 28236:688.317 JLINK_WriteReg(R3, 0x00000000)
T25F0 28236:688.345 - 0.053ms returns 0x00
T25F0 28236:688.397 JLINK_WriteReg(R4, 0x00000000)
T25F0 28236:688.421 - 0.035ms returns 0x00
T25F0 28236:688.450 JLINK_WriteReg(R5, 0x00000000)
T25F0 28236:688.471 - 0.032ms returns 0x00
T25F0 28236:688.499 JLINK_WriteReg(R6, 0x00000000)
T25F0 28236:688.521 - 0.032ms returns 0x00
T25F0 28236:688.549 JLINK_WriteReg(R7, 0x00000000)
T25F0 28236:688.570 - 0.032ms returns 0x00
T25F0 28236:688.598 JLINK_WriteReg(R8, 0x00000000)
T25F0 28236:688.620 - 0.032ms returns 0x00
T25F0 28236:688.648 JLINK_WriteReg(R9, 0x20000170)
T25F0 28236:688.670 - 0.032ms returns 0x00
T25F0 28236:688.698 JLINK_WriteReg(R10, 0x00000000)
T25F0 28236:688.720 - 0.032ms returns 0x00
T25F0 28236:688.748 JLINK_WriteReg(R11, 0x00000000)
T25F0 28236:688.769 - 0.032ms returns 0x00
T25F0 28236:688.797 JLINK_WriteReg(R12, 0x00000000)
T25F0 28236:688.819 - 0.032ms returns 0x00
T25F0 28236:688.855 JLINK_WriteReg(R13 (SP), 0x20001000)
T25F0 28236:688.884 - 0.039ms returns 0x00
T25F0 28236:688.912 JLINK_WriteReg(R14, 0x20000001)
T25F0 28236:688.934 - 0.032ms returns 0x00
T25F0 28236:688.962 JLINK_WriteReg(R15 (PC), 0x200000A2)
T25F0 28236:688.983 - 0.032ms returns 0x00
T25F0 28236:689.011 JLINK_WriteReg(XPSR, 0x01000000)
T25F0 28236:689.033 - 0.032ms returns 0x00
T25F0 28236:689.061 JLINK_WriteReg(MSP, 0x20001000)
T25F0 28236:689.083 - 0.032ms returns 0x00
T25F0 28236:689.110 JLINK_WriteReg(PSP, 0x20001000)
T25F0 28236:689.132 - 0.032ms returns 0x00
T25F0 28236:689.160 JLINK_WriteReg(CFBP, 0x00000000)
T25F0 28236:689.181 - 0.032ms returns 0x00
T25F0 28236:689.212   JLINK_SetBPEx(Addr = 0x20000000, Type = 0xFFFFFFF2)
T25F0 28236:689.246 - 0.046ms returns 0x00000003
T25F0 28236:689.275 JLINK_Go()
T25F0 28236:689.321    -- CPU_ReadMem(4 bytes @ 0xE0001000)
T25F0 28236:692.198 - 2.968ms
T25F0 28236:692.277 JLINK_IsHalted()
T25F0 28236:692.807 - 0.565ms returns FALSE
T25F0 28236:796.193 JLINK_IsHalted()
T25F0 28236:798.747    -- CPU_ReadMem(2 bytes @ 0x20000000)
T25F0 28236:799.257 - 3.096ms returns TRUE
T25F0 28236:799.321 JLINK_ReadReg(R15 (PC))
T25F0 28236:799.352 - 0.044ms returns 0x20000000
T25F0 28236:799.384 JLINK_ClrBPEx(BPHandle = 0x00000003)
T25F0 28236:799.409 - 0.036ms returns 0x00
T25F0 28236:799.439 JLINK_ReadReg(R0)
T25F0 28236:799.462 - 0.034ms returns 0x00000000
T25F0 28236:802.001 JLINK_WriteReg(R0, 0x00008000)
T25F0 28236:802.060 - 0.074ms returns 0x00
T25F0 28236:802.092 JLINK_WriteReg(R1, 0x00008000)
T25F0 28236:802.115 - 0.034ms returns 0x00
T25F0 28236:802.143 JLINK_WriteReg(R2, 0x000000FF)
T25F0 28236:802.165 - 0.032ms returns 0x00
T25F0 28236:802.193 JLINK_WriteReg(R3, 0x00000000)
T25F0 28236:802.215 - 0.032ms returns 0x00
T25F0 28236:802.243 JLINK_WriteReg(R4, 0x00000000)
T25F0 28236:802.266 - 0.033ms returns 0x00
T25F0 28236:802.294 JLINK_WriteReg(R5, 0x00000000)
T25F0 28236:802.315 - 0.032ms returns 0x00
T25F0 28236:802.343 JLINK_WriteReg(R6, 0x00000000)
T25F0 28236:802.365 - 0.032ms returns 0x00
T25F0 28236:802.393 JLINK_WriteReg(R7, 0x00000000)
T25F0 28236:802.415 - 0.033ms returns 0x00
T25F0 28236:802.443 JLINK_WriteReg(R8, 0x00000000)
T25F0 28236:802.465 - 0.033ms returns 0x00
T25F0 28236:802.493 JLINK_WriteReg(R9, 0x20000170)
T25F0 28236:802.515 - 0.032ms returns 0x00
T25F0 28236:802.543 JLINK_WriteReg(R10, 0x00000000)
T25F0 28236:802.565 - 0.032ms returns 0x00
T25F0 28236:802.593 JLINK_WriteReg(R11, 0x00000000)
T25F0 28236:802.615 - 0.033ms returns 0x00
T25F0 28236:802.643 JLINK_WriteReg(R12, 0x00000000)
T25F0 28236:802.665 - 0.032ms returns 0x00
T25F0 28236:802.693 JLINK_WriteReg(R13 (SP), 0x20001000)
T25F0 28236:802.717 - 0.035ms returns 0x00
T25F0 28236:802.746 JLINK_WriteReg(R14, 0x20000001)
T25F0 28236:802.768 - 0.033ms returns 0x00
T25F0 28236:802.797 JLINK_WriteReg(R15 (PC), 0x20000020)
T25F0 28236:802.819 - 0.034ms returns 0x00
T25F0 28236:802.848 JLINK_WriteReg(XPSR, 0x01000000)
T25F0 28236:802.870 - 0.033ms returns 0x00
T25F0 28236:802.898 JLINK_WriteReg(MSP, 0x20001000)
T25F0 28236:802.920 - 0.032ms returns 0x00
T25F0 28236:802.948 JLINK_WriteReg(PSP, 0x20001000)
T25F0 28236:802.970 - 0.032ms returns 0x00
T25F0 28236:802.998 JLINK_WriteReg(CFBP, 0x00000000)
T25F0 28236:803.020 - 0.032ms returns 0x00
T25F0 28236:803.057   JLINK_SetBPEx(Addr = 0x20000000, Type = 0xFFFFFFF2)
T25F0 28236:803.107 - 0.068ms returns 0x00000004
T25F0 28236:803.149 JLINK_Go()
T25F0 28236:803.210    -- CPU_ReadMem(4 bytes @ 0xE0001000)
T25F0 28236:805.925 - 2.812ms
T25F0 28236:805.992 JLINK_IsHalted()
T25F0 28236:808.473    -- CPU_ReadMem(2 bytes @ 0x20000000)
T25F0 28236:808.980 - 3.019ms returns TRUE
T25F0 28236:809.098 JLINK_ReadReg(R15 (PC))
T25F0 28236:809.157 - 0.085ms returns 0x20000000
T25F0 28236:809.236 JLINK_ClrBPEx(BPHandle = 0x00000004)
T25F0 28236:809.277 - 0.053ms returns 0x00
T25F0 28236:809.324 JLINK_ReadReg(R0)
T25F0 28236:809.378 - 0.073ms returns 0x00000001
T25F0 28236:809.466 JLINK_WriteReg(R0, 0x00008000)
T25F0 28236:809.528 - 0.075ms returns 0x00
T25F0 28236:809.571 JLINK_WriteReg(R1, 0x00008000)
T25F0 28236:809.634 - 0.080ms returns 0x00
T25F0 28236:809.680 JLINK_WriteReg(R2, 0x000000FF)
T25F0 28236:809.717 - 0.062ms returns 0x00
T25F0 28236:809.793 JLINK_WriteReg(R3, 0x00000000)
T25F0 28236:809.831 - 0.054ms returns 0x00
T25F0 28236:809.882 JLINK_WriteReg(R4, 0x00000000)
T25F0 28236:809.917 - 0.052ms returns 0x00
T25F0 28236:809.968 JLINK_WriteReg(R5, 0x00000000)
T25F0 28236:810.006 - 0.060ms returns 0x00
T25F0 28236:810.062 JLINK_WriteReg(R6, 0x00000000)
T25F0 28236:810.097 - 0.051ms returns 0x00
T25F0 28236:810.145 JLINK_WriteReg(R7, 0x00000000)
T25F0 28236:810.207 - 0.079ms returns 0x00
T25F0 28236:810.267 JLINK_WriteReg(R8, 0x00000000)
T25F0 28236:810.322 - 0.089ms returns 0x00
T25F0 28236:810.396 JLINK_WriteReg(R9, 0x20000170)
T25F0 28236:810.449 - 0.072ms returns 0x00
T25F0 28236:810.490 JLINK_WriteReg(R10, 0x00000000)
T25F0 28236:810.550 - 0.072ms returns 0x00
T25F0 28236:810.590 JLINK_WriteReg(R11, 0x00000000)
T25F0 28236:810.613 - 0.034ms returns 0x00
T25F0 28236:810.641 JLINK_WriteReg(R12, 0x00000000)
T25F0 28236:810.663 - 0.033ms returns 0x00
T25F0 28236:810.697 JLINK_WriteReg(R13 (SP), 0x20001000)
T25F0 28236:810.721 - 0.035ms returns 0x00
T25F0 28236:810.750 JLINK_WriteReg(R14, 0x20000001)
T25F0 28236:810.772 - 0.033ms returns 0x00
T25F0 28236:810.804 JLINK_WriteReg(R15 (PC), 0x200000A2)
T25F0 28236:810.827 - 0.034ms returns 0x00
T25F0 28236:810.855 JLINK_WriteReg(XPSR, 0x01000000)
T25F0 28236:810.877 - 0.032ms returns 0x00
T25F0 28236:810.911 JLINK_WriteReg(MSP, 0x20001000)
T25F0 28236:810.932 - 0.033ms returns 0x00
T25F0 28236:810.969 JLINK_WriteReg(PSP, 0x20001000)
T25F0 28236:811.037 - 0.099ms returns 0x00
T25F0 28236:811.109 JLINK_WriteReg(CFBP, 0x00000000)
T25F0 28236:811.161 - 0.064ms returns 0x00
T25F0 28236:811.214   JLINK_SetBPEx(Addr = 0x20000000, Type = 0xFFFFFFF2)
T25F0 28236:811.276 - 0.084ms returns 0x00000005
T25F0 28236:811.317 JLINK_Go()
T25F0 28236:811.368    -- CPU_ReadMem(4 bytes @ 0xE0001000)
T25F0 28236:814.263 - 2.983ms
T25F0 28236:814.339 JLINK_IsHalted()
T25F0 28236:814.924 - 0.621ms returns FALSE
T25F0 28236:822.074 JLINK_IsHalted()
T25F0 28236:822.617 - 0.575ms returns FALSE
T25F0 28236:835.078 JLINK_IsHalted()
T25F0 28236:835.611 - 0.565ms returns FALSE
T25F0 28236:837.023 JLINK_IsHalted()
T25F0 28236:837.516 - 0.524ms returns FALSE
T25F0 28236:839.027 JLINK_IsHalted()
T25F0 28236:839.502 - 0.506ms returns FALSE
T25F0 28236:847.052 JLINK_IsHalted()
T25F0 28236:847.606 - 0.585ms returns FALSE
T25F0 28236:849.067 JLINK_IsHalted()
T25F0 28236:849.596 - 0.560ms returns FALSE
T25F0 28236:851.025 JLINK_IsHalted()
T25F0 28236:851.517 - 0.523ms returns FALSE
T25F0 28236:853.034 JLINK_IsHalted()
T25F0 28236:853.580 - 0.578ms returns FALSE
T25F0 28236:860.008 JLINK_IsHalted()
T25F0 28236:860.589 - 0.614ms returns FALSE
T25F0 28236:862.070 JLINK_IsHalted()
T25F0 28236:862.716 - 0.690ms returns FALSE
T25F0 28236:864.929 JLINK_IsHalted()
T25F0 28236:865.525 - 0.629ms returns FALSE
T25F0 28236:866.969 JLINK_IsHalted()
T25F0 28236:867.525 - 0.588ms returns FALSE
T25F0 28236:868.993 JLINK_IsHalted()
T25F0 28236:869.496 - 0.535ms returns FALSE
T25F0 28236:871.017 JLINK_IsHalted()
T25F0 28236:871.609 - 0.625ms returns FALSE
T25F0 28236:883.954 JLINK_IsHalted()
T25F0 28236:884.440 - 0.517ms returns FALSE
T25F0 28236:885.869 JLINK_IsHalted()
T25F0 28236:886.453 - 0.619ms returns FALSE
T25F0 28236:887.874 JLINK_IsHalted()
T25F0 28236:888.456 - 0.615ms returns FALSE
T25F0 28236:890.035 JLINK_IsHalted()
T25F0 28236:890.655 - 0.655ms returns FALSE
T25F0 28236:892.960 JLINK_IsHalted()
T25F0 28236:893.613 - 0.703ms returns FALSE
T25F0 28236:900.998 JLINK_IsHalted()
T25F0 28236:901.651 - 0.686ms returns FALSE
T25F0 28236:903.899 JLINK_IsHalted()
T25F0 28236:904.490 - 0.624ms returns FALSE
T25F0 28236:910.878 JLINK_IsHalted()
T25F0 28236:911.454 - 0.607ms returns FALSE
T25F0 28236:912.947 JLINK_IsHalted()
T25F0 28236:913.568 - 0.663ms returns FALSE
T25F0 28236:915.961 JLINK_IsHalted()
T25F0 28236:918.541    -- CPU_ReadMem(2 bytes @ 0x20000000)
T25F0 28236:919.085 - 3.156ms returns TRUE
T25F0 28236:919.161 JLINK_ReadReg(R15 (PC))
T25F0 28236:919.194 - 0.046ms returns 0x20000000
T25F0 28236:919.422 JLINK_ClrBPEx(BPHandle = 0x00000005)
T25F0 28236:919.472 - 0.063ms returns 0x00
T25F0 28236:919.509 JLINK_ReadReg(R0)
T25F0 28236:919.534 - 0.039ms returns 0x00000000
T25F0 28236:920.893 JLINK_WriteReg(R0, 0x00000001)
T25F0 28236:920.935 - 0.055ms returns 0x00
T25F0 28236:920.965 JLINK_WriteReg(R1, 0x00008000)
T25F0 28236:920.988 - 0.033ms returns 0x00
T25F0 28236:921.016 JLINK_WriteReg(R2, 0x000000FF)
T25F0 28236:921.037 - 0.032ms returns 0x00
T25F0 28236:921.065 JLINK_WriteReg(R3, 0x00000000)
T25F0 28236:921.086 - 0.032ms returns 0x00
T25F0 28236:921.114 JLINK_WriteReg(R4, 0x00000000)
T25F0 28236:921.135 - 0.032ms returns 0x00
T25F0 28236:921.163 JLINK_WriteReg(R5, 0x00000000)
T25F0 28236:921.185 - 0.032ms returns 0x00
T25F0 28236:921.213 JLINK_WriteReg(R6, 0x00000000)
T25F0 28236:921.234 - 0.032ms returns 0x00
T25F0 28236:921.262 JLINK_WriteReg(R7, 0x00000000)
T25F0 28236:921.283 - 0.032ms returns 0x00
T25F0 28236:921.311 JLINK_WriteReg(R8, 0x00000000)
T25F0 28236:921.333 - 0.032ms returns 0x00
T25F0 28236:921.360 JLINK_WriteReg(R9, 0x20000170)
T25F0 28236:921.382 - 0.032ms returns 0x00
T25F0 28236:921.409 JLINK_WriteReg(R10, 0x00000000)
T25F0 28236:921.431 - 0.032ms returns 0x00
T25F0 28236:921.459 JLINK_WriteReg(R11, 0x00000000)
T25F0 28236:921.480 - 0.032ms returns 0x00
T25F0 28236:921.508 JLINK_WriteReg(R12, 0x00000000)
T25F0 28236:921.530 - 0.032ms returns 0x00
T25F0 28236:921.558 JLINK_WriteReg(R13 (SP), 0x20001000)
T25F0 28236:921.581 - 0.033ms returns 0x00
T25F0 28236:921.609 JLINK_WriteReg(R14, 0x20000001)
T25F0 28236:921.631 - 0.032ms returns 0x00
T25F0 28236:921.658 JLINK_WriteReg(R15 (PC), 0x2000005A)
T25F0 28236:921.681 - 0.032ms returns 0x00
T25F0 28236:921.708 JLINK_WriteReg(XPSR, 0x01000000)
T25F0 28236:921.730 - 0.032ms returns 0x00
T25F0 28236:921.762 JLINK_WriteReg(MSP, 0x20001000)
T25F0 28236:921.785 - 0.032ms returns 0x00
T25F0 28236:921.812 JLINK_WriteReg(PSP, 0x20001000)
T25F0 28236:921.834 - 0.032ms returns 0x00
T25F0 28236:921.862 JLINK_WriteReg(CFBP, 0x00000000)
T25F0 28236:921.883 - 0.032ms returns 0x00
T25F0 28236:921.914   JLINK_SetBPEx(Addr = 0x20000000, Type = 0xFFFFFFF2)
T25F0 28236:921.948 - 0.047ms returns 0x00000006
T25F0 28236:921.978 JLINK_Go()
T25F0 28236:922.025    -- CPU_ReadMem(4 bytes @ 0xE0001000)
T25F0 28236:924.867 - 2.937ms
T25F0 28236:924.949 JLINK_IsHalted()
T25F0 28236:927.384    -- CPU_ReadMem(2 bytes @ 0x20000000)
T25F0 28236:927.881 - 2.963ms returns TRUE
T25F0 28236:927.944 JLINK_ReadReg(R15 (PC))
T25F0 28236:927.975 - 0.044ms returns 0x20000000
T25F0 28236:928.007 JLINK_ClrBPEx(BPHandle = 0x00000006)
T25F0 28236:928.031 - 0.036ms returns 0x00
T25F0 28236:928.062 JLINK_ReadReg(R0)
T25F0 28236:928.085 - 0.034ms returns 0x00000000
T25F0 28237:005.160 JLINK_WriteMem(0x20000000, 0x0178 Bytes, ...)
T25F0 28237:005.206   Data:  00 BE 0A E0 0D 78 2D 06 68 40 08 24 40 00 00 D3 ...
T25F0 28237:005.275    -- CPU_WriteMem(376 bytes @ 0x20000000)
T25F0 28237:007.261 - 2.133ms returns 0x178
T25F0 28237:007.417 JLINK_WriteReg(R0, 0x00000000)
T25F0 28237:007.453 - 0.050ms returns 0x00
T25F0 28237:007.508 JLINK_WriteReg(R1, 0x00B71B00)
T25F0 28237:007.535 - 0.039ms returns 0x00
T25F0 28237:007.564 JLINK_WriteReg(R2, 0x00000002)
T25F0 28237:007.588 - 0.034ms returns 0x00
T25F0 28237:007.617 JLINK_WriteReg(R3, 0x00000000)
T25F0 28237:007.639 - 0.033ms returns 0x00
T25F0 28237:007.668 JLINK_WriteReg(R4, 0x00000000)
T25F0 28237:007.690 - 0.033ms returns 0x00
T25F0 28237:007.719 JLINK_WriteReg(R5, 0x00000000)
T25F0 28237:007.741 - 0.033ms returns 0x00
T25F0 28237:007.770 JLINK_WriteReg(R6, 0x00000000)
T25F0 28237:007.792 - 0.033ms returns 0x00
T25F0 28237:007.821 JLINK_WriteReg(R7, 0x00000000)
T25F0 28237:007.854 - 0.049ms returns 0x00
T25F0 28237:007.888 JLINK_WriteReg(R8, 0x00000000)
T25F0 28237:007.911 - 0.033ms returns 0x00
T25F0 28237:007.939 JLINK_WriteReg(R9, 0x20000170)
T25F0 28237:007.962 - 0.033ms returns 0x00
T25F0 28237:007.990 JLINK_WriteReg(R10, 0x00000000)
T25F0 28237:008.012 - 0.033ms returns 0x00
T25F0 28237:008.040 JLINK_WriteReg(R11, 0x00000000)
T25F0 28237:008.062 - 0.033ms returns 0x00
T25F0 28237:008.091 JLINK_WriteReg(R12, 0x00000000)
T25F0 28237:008.113 - 0.032ms returns 0x00
T25F0 28237:008.141 JLINK_WriteReg(R13 (SP), 0x20001000)
T25F0 28237:008.165 - 0.035ms returns 0x00
T25F0 28237:008.194 JLINK_WriteReg(R14, 0x20000001)
T25F0 28237:008.215 - 0.032ms returns 0x00
T25F0 28237:008.244 JLINK_WriteReg(R15 (PC), 0x2000003C)
T25F0 28237:008.266 - 0.033ms returns 0x00
T25F0 28237:008.295 JLINK_WriteReg(XPSR, 0x01000000)
T25F0 28237:008.317 - 0.033ms returns 0x00
T25F0 28237:008.345 JLINK_WriteReg(MSP, 0x20001000)
T25F0 28237:008.367 - 0.032ms returns 0x00
T25F0 28237:008.395 JLINK_WriteReg(PSP, 0x20001000)
T25F0 28237:008.417 - 0.033ms returns 0x00
T25F0 28237:008.445 JLINK_WriteReg(CFBP, 0x00000000)
T25F0 28237:008.467 - 0.046ms returns 0x00
T25F0 28237:008.513   JLINK_SetBPEx(Addr = 0x20000000, Type = 0xFFFFFFF2)
T25F0 28237:008.563    -- CPU_ReadMem(2 bytes @ 0x20000000)
T25F0 28237:009.057 - 0.576ms returns 0x00000007
T25F0 28237:009.118 JLINK_Go()
T25F0 28237:009.154    -- CPU_WriteMem(2 bytes @ 0x20000000)
T25F0 28237:009.654    -- CPU_ReadMem(4 bytes @ 0xE0001000)
T25F0 28237:012.427 - 3.360ms
T25F0 28237:012.511 JLINK_IsHalted()
T25F0 28237:014.912    -- CPU_ReadMem(2 bytes @ 0x20000000)
T25F0 28237:015.385 - 2.905ms returns TRUE
T25F0 28237:015.449 JLINK_ReadReg(R15 (PC))
T25F0 28237:015.495 - 0.058ms returns 0x20000000
T25F0 28237:015.527 JLINK_ClrBPEx(BPHandle = 0x00000007)
T25F0 28237:015.551 - 0.034ms returns 0x00
T25F0 28237:015.580 JLINK_ReadReg(R0)
T25F0 28237:015.603 - 0.033ms returns 0x00000000
T25F0 28237:017.822 JLINK_WriteMem(0x200001A0, 0x0260 Bytes, ...)
T25F0 28237:017.868   Data:  20 8D 00 20 0D 02 00 00 25 0F 00 00 65 0C 00 00 ...
T25F0 28237:017.930    -- CPU_WriteMem(608 bytes @ 0x200001A0)
T25F0 28237:020.641 - 2.852ms returns 0x260
T25F0 28237:020.704 JLINK_WriteMem(0x20000400, 0x01A0 Bytes, ...)
T25F0 28237:020.732   Data:  00 47 3F 48 00 47 3F 48 00 47 3F 48 00 47 3F 48 ...
T25F0 28237:020.791    -- CPU_WriteMem(416 bytes @ 0x20000400)
T25F0 28237:022.827 - 2.154ms returns 0x1A0
T25F0 28237:022.912 JLINK_WriteReg(R0, 0x00000000)
T25F0 28237:022.945 - 0.046ms returns 0x00
T25F0 28237:022.982 JLINK_WriteReg(R1, 0x00000400)
T25F0 28237:023.006 - 0.034ms returns 0x00
T25F0 28237:023.039 JLINK_WriteReg(R2, 0x200001A0)
T25F0 28237:023.062 - 0.035ms returns 0x00
T25F0 28237:023.092 JLINK_WriteReg(R3, 0x00000000)
T25F0 28237:023.115 - 0.034ms returns 0x00
T25F0 28237:023.148 JLINK_WriteReg(R4, 0x00000000)
T25F0 28237:023.170 - 0.033ms returns 0x00
T25F0 28237:023.198 JLINK_WriteReg(R5, 0x00000000)
T25F0 28237:023.221 - 0.033ms returns 0x00
T25F0 28237:023.255 JLINK_WriteReg(R6, 0x00000000)
T25F0 28237:023.277 - 0.033ms returns 0x00
T25F0 28237:023.311 JLINK_WriteReg(R7, 0x00000000)
T25F0 28237:023.333 - 0.033ms returns 0x00
T25F0 28237:023.368 JLINK_WriteReg(R8, 0x00000000)
T25F0 28237:023.391 - 0.033ms returns 0x00
T25F0 28237:023.425 JLINK_WriteReg(R9, 0x20000170)
T25F0 28237:023.488 - 0.075ms returns 0x00
T25F0 28237:023.524 JLINK_WriteReg(R10, 0x00000000)
T25F0 28237:023.547 - 0.034ms returns 0x00
T25F0 28237:023.581 JLINK_WriteReg(R11, 0x00000000)
T25F0 28237:023.604 - 0.033ms returns 0x00
T25F0 28237:023.638 JLINK_WriteReg(R12, 0x00000000)
T25F0 28237:023.661 - 0.033ms returns 0x00
T25F0 28237:023.696 JLINK_WriteReg(R13 (SP), 0x20001000)
T25F0 28237:023.721 - 0.036ms returns 0x00
T25F0 28237:023.755 JLINK_WriteReg(R14, 0x20000001)
T25F0 28237:023.778 - 0.033ms returns 0x00
T25F0 28237:023.812 JLINK_WriteReg(R15 (PC), 0x200000E8)
T25F0 28237:023.834 - 0.033ms returns 0x00
T25F0 28237:023.875 JLINK_WriteReg(XPSR, 0x01000000)
T25F0 28237:023.903 - 0.038ms returns 0x00
T25F0 28237:023.935 JLINK_WriteReg(MSP, 0x20001000)
T25F0 28237:023.957 - 0.033ms returns 0x00
T25F0 28237:023.986 JLINK_WriteReg(PSP, 0x20001000)
T25F0 28237:024.007 - 0.032ms returns 0x00
T25F0 28237:024.040 JLINK_WriteReg(CFBP, 0x00000000)
T25F0 28237:024.062 - 0.033ms returns 0x00
T25F0 28237:024.100   JLINK_SetBPEx(Addr = 0x20000000, Type = 0xFFFFFFF2)
T25F0 28237:024.134 - 0.051ms returns 0x00000008
T25F0 28237:024.172 JLINK_Go()
T25F0 28237:024.220    -- CPU_ReadMem(4 bytes @ 0xE0001000)
T25F0 28237:027.004 - 2.879ms
T25F0 28237:027.105 JLINK_IsHalted()
T25F0 28237:027.620 - 0.549ms returns FALSE
T25F0 28237:069.399 JLINK_IsHalted()
T25F0 28237:071.975    -- CPU_ReadMem(2 bytes @ 0x20000000)
T25F0 28237:072.565 - 3.198ms returns TRUE
T25F0 28237:072.631 JLINK_ReadReg(R15 (PC))
T25F0 28237:072.663 - 0.045ms returns 0x20000000
T25F0 28237:072.695 JLINK_ClrBPEx(BPHandle = 0x00000008)
T25F0 28237:072.720 - 0.036ms returns 0x00
T25F0 28237:072.751 JLINK_ReadReg(R0)
T25F0 28237:072.774 - 0.034ms returns 0x00000000
T25F0 28237:074.686 JLINK_WriteMem(0x200001A0, 0x0260 Bytes, ...)
T25F0 28237:074.726   Data:  13 03 00 00 13 03 00 00 13 03 00 00 13 03 00 00 ...
T25F0 28237:074.782    -- CPU_WriteMem(608 bytes @ 0x200001A0)
T25F0 28237:077.448 - 2.813ms returns 0x260
T25F0 28237:077.536 JLINK_WriteMem(0x20000400, 0x01A0 Bytes, ...)
T25F0 28237:077.563   Data:  83 F5 03 FA 05 F4 24 FA 05 F6 5E 40 12 BF 16 43 ...
T25F0 28237:077.625    -- CPU_WriteMem(416 bytes @ 0x20000400)
T25F0 28237:079.710 - 2.222ms returns 0x1A0
T25F0 28237:079.818 JLINK_WriteReg(R0, 0x00000400)
T25F0 28237:079.854 - 0.050ms returns 0x00
T25F0 28237:079.891 JLINK_WriteReg(R1, 0x00000400)
T25F0 28237:079.914 - 0.033ms returns 0x00
T25F0 28237:079.948 JLINK_WriteReg(R2, 0x200001A0)
T25F0 28237:079.970 - 0.033ms returns 0x00
T25F0 28237:080.004 JLINK_WriteReg(R3, 0x00000000)
T25F0 28237:080.026 - 0.032ms returns 0x00
T25F0 28237:080.058 JLINK_WriteReg(R4, 0x00000000)
T25F0 28237:080.080 - 0.032ms returns 0x00
T25F0 28237:080.108 JLINK_WriteReg(R5, 0x00000000)
T25F0 28237:080.129 - 0.032ms returns 0x00
T25F0 28237:080.162 JLINK_WriteReg(R6, 0x00000000)
T25F0 28237:080.184 - 0.032ms returns 0x00
T25F0 28237:080.218 JLINK_WriteReg(R7, 0x00000000)
T25F0 28237:080.240 - 0.032ms returns 0x00
T25F0 28237:080.274 JLINK_WriteReg(R8, 0x00000000)
T25F0 28237:080.302 - 0.039ms returns 0x00
T25F0 28237:080.337 JLINK_WriteReg(R9, 0x20000170)
T25F0 28237:080.359 - 0.032ms returns 0x00
T25F0 28237:080.393 JLINK_WriteReg(R10, 0x00000000)
T25F0 28237:080.415 - 0.033ms returns 0x00
T25F0 28237:080.443 JLINK_WriteReg(R11, 0x00000000)
T25F0 28237:080.465 - 0.032ms returns 0x00
T25F0 28237:080.499 JLINK_WriteReg(R12, 0x00000000)
T25F0 28237:080.521 - 0.032ms returns 0x00
T25F0 28237:080.554 JLINK_WriteReg(R13 (SP), 0x20001000)
T25F0 28237:080.578 - 0.035ms returns 0x00
T25F0 28237:080.606 JLINK_WriteReg(R14, 0x20000001)
T25F0 28237:080.628 - 0.032ms returns 0x00
T25F0 28237:080.660 JLINK_WriteReg(R15 (PC), 0x200000E8)
T25F0 28237:080.682 - 0.033ms returns 0x00
T25F0 28237:080.710 JLINK_WriteReg(XPSR, 0x01000000)
T25F0 28237:080.732 - 0.032ms returns 0x00
T25F0 28237:080.766 JLINK_WriteReg(MSP, 0x20001000)
T25F0 28237:080.788 - 0.032ms returns 0x00
T25F0 28237:080.821 JLINK_WriteReg(PSP, 0x20001000)
T25F0 28237:080.843 - 0.032ms returns 0x00
T25F0 28237:080.876 JLINK_WriteReg(CFBP, 0x00000000)
T25F0 28237:080.897 - 0.032ms returns 0x00
T25F0 28237:080.935   JLINK_SetBPEx(Addr = 0x20000000, Type = 0xFFFFFFF2)
T25F0 28237:080.969 - 0.048ms returns 0x00000009
T25F0 28237:081.190 JLINK_Go()
T25F0 28237:081.273    -- CPU_ReadMem(4 bytes @ 0xE0001000)
T25F0 28237:084.119 - 2.976ms
T25F0 28237:084.198 JLINK_IsHalted()
T25F0 28237:084.811 - 0.645ms returns FALSE
T25F0 28237:089.369 JLINK_IsHalted()
T25F0 28237:091.755    -- CPU_ReadMem(2 bytes @ 0x20000000)
T25F0 28237:092.210 - 2.873ms returns TRUE
T25F0 28237:092.295 JLINK_ReadReg(R15 (PC))
T25F0 28237:092.341 - 0.059ms returns 0x20000000
T25F0 28237:092.373 JLINK_ClrBPEx(BPHandle = 0x00000009)
T25F0 28237:092.398 - 0.036ms returns 0x00
T25F0 28237:092.429 JLINK_ReadReg(R0)
T25F0 28237:092.452 - 0.034ms returns 0x00000000
T25F0 28237:094.387 JLINK_WriteMem(0x200001A0, 0x0260 Bytes, ...)
T25F0 28237:094.432   Data:  10 40 00 F0 2F B8 70 47 75 46 FF F7 D3 FF AE 46 ...
T25F0 28237:094.493    -- CPU_WriteMem(608 bytes @ 0x200001A0)
T25F0 28237:097.158 - 2.805ms returns 0x260
T25F0 28237:097.223 JLINK_WriteMem(0x20000400, 0x01A0 Bytes, ...)
T25F0 28237:097.296   Data:  04 F0 1C FA 64 48 40 38 90 ED 10 0A B5 EE C0 0A ...
T25F0 28237:097.353    -- CPU_WriteMem(416 bytes @ 0x20000400)
T25F0 28237:099.438 - 2.263ms returns 0x1A0
T25F0 28237:099.537 JLINK_WriteReg(R0, 0x00000800)
T25F0 28237:099.573 - 0.049ms returns 0x00
T25F0 28237:099.603 JLINK_WriteReg(R1, 0x00000400)
T25F0 28237:099.627 - 0.035ms returns 0x00
T25F0 28237:099.656 JLINK_WriteReg(R2, 0x200001A0)
T25F0 28237:099.679 - 0.034ms returns 0x00
T25F0 28237:099.708 JLINK_WriteReg(R3, 0x00000000)
T25F0 28237:099.730 - 0.033ms returns 0x00
T25F0 28237:099.758 JLINK_WriteReg(R4, 0x00000000)
T25F0 28237:099.781 - 0.033ms returns 0x00
T25F0 28237:099.809 JLINK_WriteReg(R5, 0x00000000)
T25F0 28237:099.831 - 0.033ms returns 0x00
T25F0 28237:099.860 JLINK_WriteReg(R6, 0x00000000)
T25F0 28237:099.882 - 0.033ms returns 0x00
T25F0 28237:099.911 JLINK_WriteReg(R7, 0x00000000)
T25F0 28237:099.934 - 0.033ms returns 0x00
T25F0 28237:099.962 JLINK_WriteReg(R8, 0x00000000)
T25F0 28237:099.984 - 0.033ms returns 0x00
T25F0 28237:100.013 JLINK_WriteReg(R9, 0x20000170)
T25F0 28237:100.035 - 0.033ms returns 0x00
T25F0 28237:100.063 JLINK_WriteReg(R10, 0x00000000)
T25F0 28237:100.085 - 0.033ms returns 0x00
T25F0 28237:100.113 JLINK_WriteReg(R11, 0x00000000)
T25F0 28237:100.135 - 0.032ms returns 0x00
T25F0 28237:100.163 JLINK_WriteReg(R12, 0x00000000)
T25F0 28237:100.185 - 0.032ms returns 0x00
T25F0 28237:100.213 JLINK_WriteReg(R13 (SP), 0x20001000)
T25F0 28237:100.237 - 0.035ms returns 0x00
T25F0 28237:100.266 JLINK_WriteReg(R14, 0x20000001)
T25F0 28237:100.294 - 0.039ms returns 0x00
T25F0 28237:100.323 JLINK_WriteReg(R15 (PC), 0x200000E8)
T25F0 28237:100.345 - 0.033ms returns 0x00
T25F0 28237:100.373 JLINK_WriteReg(XPSR, 0x01000000)
T25F0 28237:100.395 - 0.032ms returns 0x00
T25F0 28237:100.423 JLINK_WriteReg(MSP, 0x20001000)
T25F0 28237:100.445 - 0.032ms returns 0x00
T25F0 28237:100.473 JLINK_WriteReg(PSP, 0x20001000)
T25F0 28237:100.495 - 0.032ms returns 0x00
T25F0 28237:100.523 JLINK_WriteReg(CFBP, 0x00000000)
T25F0 28237:100.544 - 0.032ms returns 0x00
T25F0 28237:100.576   JLINK_SetBPEx(Addr = 0x20000000, Type = 0xFFFFFFF2)
T25F0 28237:100.610 - 0.047ms returns 0x0000000A
T25F0 28237:100.639 JLINK_Go()
T25F0 28237:100.691    -- CPU_ReadMem(4 bytes @ 0xE0001000)
T25F0 28237:103.692 - 3.093ms
T25F0 28237:103.770 JLINK_IsHalted()
T25F0 28237:104.221 - 0.490ms returns FALSE
T25F0 28237:109.404 JLINK_IsHalted()
T25F0 28237:111.968    -- CPU_ReadMem(2 bytes @ 0x20000000)
T25F0 28237:112.514 - 3.148ms returns TRUE
T25F0 28237:112.586 JLINK_ReadReg(R15 (PC))
T25F0 28237:112.618 - 0.045ms returns 0x20000000
T25F0 28237:112.649 JLINK_ClrBPEx(BPHandle = 0x0000000A)
T25F0 28237:112.674 - 0.036ms returns 0x00
T25F0 28237:112.704 JLINK_ReadReg(R0)
T25F0 28237:112.727 - 0.034ms returns 0x00000000
T25F0 28237:114.651 JLINK_WriteMem(0x200001A0, 0x0260 Bytes, ...)
T25F0 28237:114.694   Data:  24 04 00 20 CD CC CC 3D 08 B5 0E 48 00 68 00 90 ...
T25F0 28237:114.751    -- CPU_WriteMem(608 bytes @ 0x200001A0)
T25F0 28237:117.428 - 2.814ms returns 0x260
T25F0 28237:117.497 JLINK_WriteMem(0x20000400, 0x01A0 Bytes, ...)
T25F0 28237:117.525   Data:  D0 ED 05 0A 90 ED 02 1A 00 EE 81 0A D0 ED 00 0A ...
T25F0 28237:117.578    -- CPU_WriteMem(416 bytes @ 0x20000400)
T25F0 28237:119.614 - 2.154ms returns 0x1A0
T25F0 28237:119.698 JLINK_WriteReg(R0, 0x00000C00)
T25F0 28237:119.732 - 0.048ms returns 0x00
T25F0 28237:119.773 JLINK_WriteReg(R1, 0x00000400)
T25F0 28237:119.802 - 0.041ms returns 0x00
T25F0 28237:119.832 JLINK_WriteReg(R2, 0x200001A0)
T25F0 28237:119.853 - 0.032ms returns 0x00
T25F0 28237:119.881 JLINK_WriteReg(R3, 0x00000000)
T25F0 28237:119.904 - 0.033ms returns 0x00
T25F0 28237:119.932 JLINK_WriteReg(R4, 0x00000000)
T25F0 28237:119.955 - 0.033ms returns 0x00
T25F0 28237:119.984 JLINK_WriteReg(R5, 0x00000000)
T25F0 28237:120.006 - 0.033ms returns 0x00
T25F0 28237:120.034 JLINK_WriteReg(R6, 0x00000000)
T25F0 28237:120.057 - 0.034ms returns 0x00
T25F0 28237:120.086 JLINK_WriteReg(R7, 0x00000000)
T25F0 28237:120.108 - 0.033ms returns 0x00
T25F0 28237:120.136 JLINK_WriteReg(R8, 0x00000000)
T25F0 28237:120.159 - 0.033ms returns 0x00
T25F0 28237:120.187 JLINK_WriteReg(R9, 0x20000170)
T25F0 28237:120.209 - 0.039ms returns 0x00
T25F0 28237:120.245 JLINK_WriteReg(R10, 0x00000000)
T25F0 28237:120.267 - 0.033ms returns 0x00
T25F0 28237:120.295 JLINK_WriteReg(R11, 0x00000000)
T25F0 28237:120.318 - 0.033ms returns 0x00
T25F0 28237:120.346 JLINK_WriteReg(R12, 0x00000000)
T25F0 28237:120.368 - 0.033ms returns 0x00
T25F0 28237:120.397 JLINK_WriteReg(R13 (SP), 0x20001000)
T25F0 28237:120.421 - 0.035ms returns 0x00
T25F0 28237:120.450 JLINK_WriteReg(R14, 0x20000001)
T25F0 28237:120.472 - 0.033ms returns 0x00
T25F0 28237:120.500 JLINK_WriteReg(R15 (PC), 0x200000E8)
T25F0 28237:120.523 - 0.033ms returns 0x00
T25F0 28237:120.551 JLINK_WriteReg(XPSR, 0x01000000)
T25F0 28237:120.573 - 0.032ms returns 0x00
T25F0 28237:120.601 JLINK_WriteReg(MSP, 0x20001000)
T25F0 28237:120.623 - 0.032ms returns 0x00
T25F0 28237:120.651 JLINK_WriteReg(PSP, 0x20001000)
T25F0 28237:120.673 - 0.032ms returns 0x00
T25F0 28237:120.701 JLINK_WriteReg(CFBP, 0x00000000)
T25F0 28237:120.723 - 0.032ms returns 0x00
T25F0 28237:120.755   JLINK_SetBPEx(Addr = 0x20000000, Type = 0xFFFFFFF2)
T25F0 28237:120.788 - 0.047ms returns 0x0000000B
T25F0 28237:120.818 JLINK_Go()
T25F0 28237:120.866    -- CPU_ReadMem(4 bytes @ 0xE0001000)
T25F0 28237:123.619 - 2.841ms
T25F0 28237:123.691 JLINK_IsHalted()
T25F0 28237:124.171 - 0.522ms returns FALSE
T25F0 28237:130.237 JLINK_IsHalted()
T25F0 28237:132.780    -- CPU_ReadMem(2 bytes @ 0x20000000)
T25F0 28237:133.337 - 3.131ms returns TRUE
T25F0 28237:133.410 JLINK_ReadReg(R15 (PC))
T25F0 28237:133.442 - 0.045ms returns 0x20000000
T25F0 28237:133.665 JLINK_ClrBPEx(BPHandle = 0x0000000B)
T25F0 28237:133.714 - 0.062ms returns 0x00
T25F0 28237:133.749 JLINK_ReadReg(R0)
T25F0 28237:133.775 - 0.038ms returns 0x00000000
T25F0 28237:135.657 JLINK_WriteMem(0x200001A0, 0x0260 Bytes, ...)
T25F0 28237:135.698   Data:  10 20 4F F0 40 21 08 62 04 48 00 78 08 B9 01 20 ...
T25F0 28237:135.755    -- CPU_WriteMem(608 bytes @ 0x200001A0)
T25F0 28237:138.499 - 2.875ms returns 0x260
T25F0 28237:138.570 JLINK_WriteMem(0x20000400, 0x01A0 Bytes, ...)
T25F0 28237:138.598   Data:  00 EE 81 0A D0 ED 0C 0A 90 ED 0B 1A F0 EE 00 1A ...
T25F0 28237:138.651    -- CPU_WriteMem(416 bytes @ 0x20000400)
T25F0 28237:140.652 - 2.114ms returns 0x1A0
T25F0 28237:140.728 JLINK_WriteReg(R0, 0x00001000)
T25F0 28237:140.761 - 0.046ms returns 0x00
T25F0 28237:140.791 JLINK_WriteReg(R1, 0x00000400)
T25F0 28237:140.815 - 0.035ms returns 0x00
T25F0 28237:140.844 JLINK_WriteReg(R2, 0x200001A0)
T25F0 28237:140.867 - 0.034ms returns 0x00
T25F0 28237:140.896 JLINK_WriteReg(R3, 0x00000000)
T25F0 28237:140.918 - 0.033ms returns 0x00
T25F0 28237:140.947 JLINK_WriteReg(R4, 0x00000000)
T25F0 28237:140.969 - 0.033ms returns 0x00
T25F0 28237:140.998 JLINK_WriteReg(R5, 0x00000000)
T25F0 28237:141.021 - 0.033ms returns 0x00
T25F0 28237:141.049 JLINK_WriteReg(R6, 0x00000000)
T25F0 28237:141.072 - 0.033ms returns 0x00
T25F0 28237:141.100 JLINK_WriteReg(R7, 0x00000000)
T25F0 28237:141.153 - 0.065ms returns 0x00
T25F0 28237:141.189 JLINK_WriteReg(R8, 0x00000000)
T25F0 28237:141.212 - 0.034ms returns 0x00
T25F0 28237:141.241 JLINK_WriteReg(R9, 0x20000170)
T25F0 28237:141.263 - 0.034ms returns 0x00
T25F0 28237:141.301 JLINK_WriteReg(R10, 0x00000000)
T25F0 28237:141.329 - 0.039ms returns 0x00
T25F0 28237:141.357 JLINK_WriteReg(R11, 0x00000000)
T25F0 28237:141.380 - 0.033ms returns 0x00
T25F0 28237:141.408 JLINK_WriteReg(R12, 0x00000000)
T25F0 28237:141.429 - 0.032ms returns 0x00
T25F0 28237:141.458 JLINK_WriteReg(R13 (SP), 0x20001000)
T25F0 28237:141.482 - 0.035ms returns 0x00
T25F0 28237:141.510 JLINK_WriteReg(R14, 0x20000001)
T25F0 28237:141.532 - 0.032ms returns 0x00
T25F0 28237:141.560 JLINK_WriteReg(R15 (PC), 0x200000E8)
T25F0 28237:141.582 - 0.033ms returns 0x00
T25F0 28237:141.610 JLINK_WriteReg(XPSR, 0x01000000)
T25F0 28237:141.633 - 0.032ms returns 0x00
T25F0 28237:141.661 JLINK_WriteReg(MSP, 0x20001000)
T25F0 28237:141.682 - 0.032ms returns 0x00
T25F0 28237:141.711 JLINK_WriteReg(PSP, 0x20001000)
T25F0 28237:141.732 - 0.032ms returns 0x00
T25F0 28237:141.760 JLINK_WriteReg(CFBP, 0x00000000)
T25F0 28237:141.782 - 0.032ms returns 0x00
T25F0 28237:141.813   JLINK_SetBPEx(Addr = 0x20000000, Type = 0xFFFFFFF2)
T25F0 28237:141.847 - 0.047ms returns 0x0000000C
T25F0 28237:141.876 JLINK_Go()
T25F0 28237:141.924    -- CPU_ReadMem(4 bytes @ 0xE0001000)
T25F0 28237:144.668 - 2.828ms
T25F0 28237:144.735 JLINK_IsHalted()
T25F0 28237:145.195 - 0.491ms returns FALSE
T25F0 28237:150.198 JLINK_IsHalted()
T25F0 28237:152.685    -- CPU_ReadMem(2 bytes @ 0x20000000)
T25F0 28237:153.197 - 3.030ms returns TRUE
T25F0 28237:153.259 JLINK_ReadReg(R15 (PC))
T25F0 28237:153.290 - 0.044ms returns 0x20000000
T25F0 28237:153.322 JLINK_ClrBPEx(BPHandle = 0x0000000C)
T25F0 28237:153.347 - 0.036ms returns 0x00
T25F0 28237:153.377 JLINK_ReadReg(R0)
T25F0 28237:153.400 - 0.034ms returns 0x00000000
T25F0 28237:155.633 JLINK_WriteMem(0x200001A0, 0x0260 Bytes, ...)
